
T2C24 000:071 SEGGER J-Link V6.14b Log File (0001ms, 0027ms total)
T2C24 000:071 DLL Compiled: Mar  9 2017 08:46:04 (0001ms, 0027ms total)
T2C24 000:071 Logging started @ 2019-10-14 10:40 (0001ms, 0027ms total)
T2C24 000:072 JLINK_SetWarnOutHandler(...) (0000ms, 0027ms total)
T2C24 000:072 JLINK_OpenEx(...)
Firmware: J-Link ARM V8 compiled Jan 31 2018 18:34:52
Hardware: V8.00
S/N: 20080643
Feature(s): RDI,FlashDL,FlashBP,JFlash,GDBFullWEBSRV Webserver running on local port 19080 (0014ms, 0041ms total)
T2C24 000:072   returns O.K. (0014ms, 0041ms total)
T2C24 000:086 JLINK_SetErrorOutHandler(...) (0000ms, 0041ms total)
T2C24 000:086 JLINK_ExecCommand("ProjectFile = "C:\Users\synwit-S01\Desktop\320\SWM320 TFT人机交互\演示版\9M3Dnewlib\8M8\USER\JLinkSettings.ini"", ...). C:\Program Files (x86)\SEGGER\JLink_V614b\JLinkDevices.xml evaluated successfully.Device "CORTEX-M4" selected.  returns 0x00 (0109ms, 0150ms total)
T2C24 000:199 JLINK_ExecCommand("Device = SWM320xE", ...). Device "CORTEX-M4" selected.  returns 0x00 (0006ms, 0156ms total)
T2C24 000:205 JLINK_ExecCommand("DisableConnectionTimeout", ...).   returns 0x01 (0000ms, 0156ms total)
T2C24 000:205 JLINK_GetHardwareVersion()  returns 0x13880 (0000ms, 0156ms total)
T2C24 000:205 JLINK_GetDLLVersion()  returns 61402 (0000ms, 0156ms total)
T2C24 000:205 JLINK_GetFirmwareString(...) (0000ms, 0156ms total)
T2C24 000:217 JLINK_GetDLLVersion()  returns 61402 (0000ms, 0156ms total)
T2C24 000:217 JLINK_GetCompileDateTime() (0000ms, 0156ms total)
T2C24 000:219 JLINK_GetFirmwareString(...) (0000ms, 0156ms total)
T2C24 000:224 JLINK_GetHardwareVersion()  returns 0x13880 (0000ms, 0156ms total)
T2C24 000:236 JLINK_TIF_Select(JLINKARM_TIF_SWD)  returns 0x00 (0002ms, 0158ms total)
T2C24 000:238 JLINK_SetSpeed(50000) (0000ms, 0158ms total)
T2C24 000:238 JLINK_GetId() >0x108 TIF>Found SWD-DP with ID 0x2BA01477 >0x0D TIF> >0x28 TIF> >0x0D TIF> >0x28 TIF> >0x0D TIF> >0x28 TIF> >0x0D TIF> >0x28 TIF> >0x0D TIF> >0x21 TIF> >0x0D TIF> >0x28 TIF> >0x0D TIF> >0x28 TIF> >0x0D TIF> >0x21 TIF> >0x0D TIF> >0x21 TIF> >0x0D TIF> >0x21 TIF>AP-IDR: 0x24770011, Type: AHB-APAHB-AP ROM: 0xE00FF000 (Base addr. of first ROM table) >0x0D TIF> >0x28 TIF> >0x0D TIF> >0x28 TIF> >0x0D TIF> >0x28 TIF> >0x0D TIF> >0x21 TIF> >0x0D TIF> >0x21 TIF> >0x0D TIF> >0x28 TIF>
 >0x0D TIF> >0x21 TIF> >0x0D TIF> >0x21 TIF>Found Cortex-M4 r0p1, Little endian. >0x0D TIF> >0x28 TIF> -- CPU_ReadMem(4 bytes @ 0xE000EDF0) -- CPU_WriteMem(4 bytes @ 0xE000EDF0) -- CPU_ReadMem(4 bytes @ 0xE0002000)FPUnit: 6 code (BP) slots and 2 literal slots -- CPU_ReadMem(4 bytes @ 0xE000EDFC) -- CPU_WriteMem(4 bytes @ 0xE000EDFC) -- CPU_ReadMem(4 bytes @ 0xE0001000) -- CPU_WriteMem(4 bytes @ 0xE0001000) -- CPU_ReadMem(4 bytes @ 0xE000ED88) -- CPU_WriteMem(4 bytes @ 0xE000ED88)
 -- CPU_ReadMem(4 bytes @ 0xE000ED88) -- CPU_WriteMem(4 bytes @ 0xE000ED88)CoreSight components:ROMTbl 0 @ E00FF000 -- CPU_ReadMem(16 bytes @ 0xE00FF000) -- CPU_ReadMem(16 bytes @ 0xE000EFF0) -- CPU_ReadMem(16 bytes @ 0xE000EFE0)ROMTbl 0 [0]: FFF0F000, CID: B105E00D, PID: 000BB000 SCS -- CPU_ReadMem(16 bytes @ 0xE0001FF0) -- CPU_ReadMem(16 bytes @ 0xE0001FE0)ROMTbl 0 [1]: FFF02000, CID: B105E00D, PID: 003BB002 DWT -- CPU_ReadMem(16 bytes @ 0xE0002FF0) -- CPU_ReadMem(16 bytes @ 0xE0002FE0)
ROMTbl 0 [2]: FFF03000, CID: B105E00D, PID: 002BB003 FPB -- CPU_ReadMem(16 bytes @ 0xE0000FF0) -- CPU_ReadMem(16 bytes @ 0xE0000FE0)ROMTbl 0 [3]: FFF01000, CID: B105E00D, PID: 003BB001 ITM -- CPU_ReadMem(16 bytes @ 0xE00FF010) -- CPU_ReadMem(16 bytes @ 0xE0040FF0) -- CPU_ReadMem(16 bytes @ 0xE0040FE0)ROMTbl 0 [4]: FFF41000, CID: B105900D, PID: 000BB9A1 TPIU >0x0D TIF> >0x21 TIF>  returns 0x2BA01477 (0074ms, 0232ms total)
T2C24 000:312 JLINK_GetDLLVersion()  returns 61402 (0000ms, 0232ms total)
T2C24 000:312 JLINK_CORE_GetFound()  returns 0xE0000FF (0000ms, 0232ms total)
T2C24 000:312 JLINK_GetDebugInfo(0x100 = JLINKARM_ROM_TABLE_ADDR_INDEX) -- Value=0xE00FF000  returns 0x00 (0001ms, 0233ms total)
T2C24 000:314 JLINK_ReadMem (0xE00FF000, 0x0020 Bytes, ...) -- CPU is running -- CPU_ReadMem(32 bytes @ 0xE00FF000) - Data: 03 F0 F0 FF 03 20 F0 FF 03 30 F0 FF 03 10 F0 FF ...  returns 0x00 (0001ms, 0234ms total)
T2C24 000:315 JLINK_ReadMem (0xE000EFF0, 0x0010 Bytes, ...) -- CPU is running -- CPU_ReadMem(16 bytes @ 0xE000EFF0) - Data: 0D 00 00 00 E0 00 00 00 05 00 00 00 B1 00 00 00  returns 0x00 (0001ms, 0235ms total)
T2C24 000:316 JLINK_ReadMem (0xE000EFD0, 0x0020 Bytes, ...) -- CPU is running -- CPU_ReadMem(32 bytes @ 0xE000EFD0) - Data: 04 00 00 00 00 00 00 00 00 00 00 00 00 00 00 00 ...  returns 0x00 (0001ms, 0236ms total)
T2C24 000:317 JLINK_ReadMem (0xE0001FF0, 0x0010 Bytes, ...) -- CPU is running -- CPU_ReadMem(16 bytes @ 0xE0001FF0) - Data: 0D 00 00 00 E0 00 00 00 05 00 00 00 B1 00 00 00  returns 0x00 (0001ms, 0237ms total)
T2C24 000:318 JLINK_ReadMem (0xE0001FD0, 0x0020 Bytes, ...) -- CPU is running -- CPU_ReadMem(32 bytes @ 0xE0001FD0) - Data: 04 00 00 00 00 00 00 00 00 00 00 00 00 00 00 00 ...  returns 0x00 (0001ms, 0238ms total)
T2C24 000:319 JLINK_ReadMem (0xE0002FF0, 0x0010 Bytes, ...) -- CPU is running -- CPU_ReadMem(16 bytes @ 0xE0002FF0) - Data: 0D 00 00 00 E0 00 00 00 05 00 00 00 B1 00 00 00  returns 0x00 (0001ms, 0239ms total)
T2C24 000:320 JLINK_ReadMem (0xE0002FD0, 0x0020 Bytes, ...) -- CPU is running -- CPU_ReadMem(32 bytes @ 0xE0002FD0) - Data: 04 00 00 00 00 00 00 00 00 00 00 00 00 00 00 00 ...  returns 0x00 (0001ms, 0240ms total)
T2C24 000:321 JLINK_ReadMem (0xE0000FF0, 0x0010 Bytes, ...) -- CPU is running -- CPU_ReadMem(16 bytes @ 0xE0000FF0) - Data: 0D 00 00 00 E0 00 00 00 05 00 00 00 B1 00 00 00  returns 0x00 (0001ms, 0241ms total)
T2C24 000:322 JLINK_ReadMem (0xE0000FD0, 0x0020 Bytes, ...) -- CPU is running -- CPU_ReadMem(32 bytes @ 0xE0000FD0) - Data: 04 00 00 00 00 00 00 00 00 00 00 00 00 00 00 00 ...  returns 0x00 (0001ms, 0242ms total)
T2C24 000:323 JLINK_ReadMem (0xE0040FF0, 0x0010 Bytes, ...) -- CPU is running -- CPU_ReadMem(16 bytes @ 0xE0040FF0) - Data: 0D 00 00 00 90 00 00 00 05 00 00 00 B1 00 00 00  returns 0x00 (0001ms, 0243ms total)
T2C24 000:324 JLINK_ReadMem (0xE0040FD0, 0x0020 Bytes, ...) -- CPU is running -- CPU_ReadMem(32 bytes @ 0xE0040FD0) - Data: 04 00 00 00 00 00 00 00 00 00 00 00 00 00 00 00 ...  returns 0x00 (0001ms, 0244ms total)
T2C24 000:325 JLINK_ReadMemU32(0xE000EF40, 0x0001 Items, ...) -- CPU is running -- CPU_ReadMem(4 bytes @ 0xE000EF40) - Data: 00 00 00 00  returns 0x01 (0001ms, 0245ms total)
T2C24 000:326 JLINK_ReadMemU32(0xE000ED00, 0x0001 Items, ...) -- CPU is running -- CPU_ReadMem(4 bytes @ 0xE000ED00) - Data: 41 C2 0F 41  returns 0x01 (0000ms, 0245ms total)
T2C24 000:326 JLINK_SetResetType(JLINKARM_CM3_RESET_TYPE_NORMAL)  returns JLINKARM_CM3_RESET_TYPE_NORMAL (0000ms, 0245ms total)
T2C24 000:326 JLINK_Reset() -- CPU_WriteMem(4 bytes @ 0xE0002000) -- CPU_ReadMem(4 bytes @ 0xE000EDFC) -- CPU_WriteMem(4 bytes @ 0xE000EDFC) -- CPU_ReadMem(4 bytes @ 0xE0001000) (0015ms, 0260ms total)
T2C24 000:341 JLINK_Halt()  returns 0x00 (0000ms, 0260ms total)
T2C24 000:341 JLINK_IsHalted()  returns TRUE (0000ms, 0260ms total)
T2C24 000:341 JLINK_ReadMemU32(0xE000EDF0, 0x0001 Items, ...) -- CPU_ReadMem(4 bytes @ 0xE000EDF0) - Data: 03 00 03 00  returns 0x01 (0001ms, 0261ms total)
T2C24 000:342 JLINK_WriteU32(0xE000EDF0, 0xA05F0003) -- CPU_WriteMem(4 bytes @ 0xE000EDF0)  returns 0x00 (0000ms, 0261ms total)
T2C24 000:342 JLINK_WriteU32(0xE000EDFC, 0x01000000) -- CPU_WriteMem(4 bytes @ 0xE000EDFC)  returns 0x00 (0001ms, 0262ms total)
T2C24 000:359 JLINK_GetHWStatus(...)  returns 0x00 (0001ms, 0263ms total)
T2C24 000:365 JLINK_GetNumBPUnits(Type = 0xFFFFFF00)  returns 0x06 (0000ms, 0263ms total)
T2C24 000:365 JLINK_GetNumBPUnits(Type = 0xF0)  returns 0x2000 (0000ms, 0263ms total)
T2C24 000:365 JLINK_GetNumWPUnits()  returns 0x04 (0000ms, 0263ms total)
T2C24 000:371 JLINK_GetSpeed()  returns 0xFA0 (0000ms, 0263ms total)
T2C24 000:376 JLINK_ReadMemU32(0xE000E004, 0x0001 Items, ...) -- CPU_ReadMem(4 bytes @ 0xE000E004) - Data: 02 00 00 00  returns 0x01 (0001ms, 0264ms total)
T2C24 000:377 JLINK_ReadMemU32(0xE000E004, 0x0001 Items, ...) -- CPU_ReadMem(4 bytes @ 0xE000E004) - Data: 02 00 00 00  returns 0x01 (0001ms, 0265ms total)
T2C24 000:378 JLINK_WriteMem(0xE0001000, 0x001C Bytes, ...) - Data: 01 00 00 00 00 00 00 00 00 00 00 00 00 00 00 00 ... -- CPU_WriteMem(28 bytes @ 0xE0001000)  returns 0x1C (0001ms, 0266ms total)
T2C24 000:379 JLINK_ReadMem (0xE0001000, 0x001C Bytes, ...) -- CPU_ReadMem(28 bytes @ 0xE0001000) - Data: 01 00 00 40 00 00 00 00 00 00 00 00 00 00 00 00 ...  returns 0x00 (0002ms, 0268ms total)
T2C24 000:381 JLINK_Halt()  returns 0x00 (0000ms, 0268ms total)
T2C24 000:381 JLINK_IsHalted()  returns TRUE (0000ms, 0268ms total)
T2C24 000:384 JLINK_WriteMem(0x20000000, 0x0108 Bytes, ...) - Data: 00 BE 0A E0 0D 78 2D 06 68 40 08 24 40 00 00 D3 ... -- CPU_WriteMem(264 bytes @ 0x20000000)  returns 0x108 (0003ms, 0271ms total)
T2C24 000:387 JLINK_WriteReg(R0, 0x00000000)  returns 0x00 (0000ms, 0271ms total)
T2C24 000:387 JLINK_WriteReg(R1, 0x00B71B00)  returns 0x00 (0000ms, 0271ms total)
T2C24 000:387 JLINK_WriteReg(R2, 0x00000001)  returns 0x00 (0000ms, 0271ms total)
T2C24 000:387 JLINK_WriteReg(R3, 0x00000000)  returns 0x00 (0000ms, 0271ms total)
T2C24 000:387 JLINK_WriteReg(R4, 0x00000000)  returns 0x00 (0000ms, 0271ms total)
T2C24 000:387 JLINK_WriteReg(R5, 0x00000000)  returns 0x00 (0000ms, 0271ms total)
T2C24 000:387 JLINK_WriteReg(R6, 0x00000000)  returns 0x00 (0000ms, 0271ms total)
T2C24 000:387 JLINK_WriteReg(R7, 0x00000000)  returns 0x00 (0000ms, 0271ms total)
T2C24 000:387 JLINK_WriteReg(R8, 0x00000000)  returns 0x00 (0000ms, 0271ms total)
T2C24 000:387 JLINK_WriteReg(R9, 0x20000104)  returns 0x00 (0000ms, 0271ms total)
T2C24 000:387 JLINK_WriteReg(R10, 0x00000000)  returns 0x00 (0000ms, 0271ms total)
T2C24 000:387 JLINK_WriteReg(R11, 0x00000000)  returns 0x00 (0000ms, 0271ms total)
T2C24 000:387 JLINK_WriteReg(R12, 0x00000000)  returns 0x00 (0000ms, 0271ms total)
T2C24 000:387 JLINK_WriteReg(R13 (SP), 0x20004000)  returns 0x00 (0000ms, 0271ms total)
T2C24 000:387 JLINK_WriteReg(R14, 0x20000001)  returns 0x00 (0000ms, 0271ms total)
T2C24 000:387 JLINK_WriteReg(R15 (PC), 0x20000040)  returns 0x00 (0000ms, 0271ms total)
T2C24 000:387 JLINK_WriteReg(XPSR, 0x01000000)  returns 0x00 (0000ms, 0271ms total)
T2C24 000:387 JLINK_WriteReg(MSP, 0x20004000)  returns 0x00 (0000ms, 0271ms total)
T2C24 000:387 JLINK_WriteReg(PSP, 0x20004000)  returns 0x00 (0000ms, 0271ms total)
T2C24 000:387 JLINK_WriteReg(CFBP, 0x00000000)  returns 0x00 (0000ms, 0271ms total)
T2C24 000:387 JLINK_SetBPEx(Addr = 0x20000000, Type = 0xFFFFFFF2) -- CPU_ReadMem(4 bytes @ 0x20000000) -- CPU_WriteMem(4 bytes @ 0x20000000) -- CPU_ReadMem(4 bytes @ 0x20000000) -- CPU_WriteMem(4 bytes @ 0x20000000) -- CPU_ReadMem(2 bytes @ 0x20000000)  returns 0x00000001 (0004ms, 0275ms total)
T2C24 000:391 JLINK_Go() -- CPU_WriteMem(2 bytes @ 0x20000000) -- CPU_WriteMem(4 bytes @ 0xE0002008) -- CPU_WriteMem(4 bytes @ 0xE000200C) -- CPU_WriteMem(4 bytes @ 0xE0002010) -- CPU_WriteMem(4 bytes @ 0xE0002014) -- CPU_WriteMem(4 bytes @ 0xE0002018) -- CPU_WriteMem(4 bytes @ 0xE000201C) -- CPU_ReadMem(4 bytes @ 0xE0001000) -- CPU_WriteMem(4 bytes @ 0xE0001004) (0009ms, 0284ms total)
T2C24 000:401 JLINK_IsHalted() -- CPU_ReadMem(2 bytes @ 0x20000000)  returns TRUE (0003ms, 0287ms total)
T2C24 000:404 JLINK_ReadReg(R15 (PC))  returns 0x20000000 (0000ms, 0284ms total)
T2C24 000:404 JLINK_ClrBPEx(BPHandle = 0x00000001)  returns 0x00 (0000ms, 0284ms total)
T2C24 000:404 JLINK_ReadReg(R0)  returns 0x00000000 (0000ms, 0284ms total)
T2C24 000:405 JLINK_WriteReg(R0, 0x00000000)  returns 0x00 (0000ms, 0284ms total)
T2C24 000:405 JLINK_WriteReg(R1, 0x00B71B00)  returns 0x00 (0000ms, 0284ms total)
T2C24 000:405 JLINK_WriteReg(R2, 0x00000001)  returns 0x00 (0000ms, 0284ms total)
T2C24 000:405 JLINK_WriteReg(R3, 0x00000000)  returns 0x00 (0000ms, 0284ms total)
T2C24 000:405 JLINK_WriteReg(R4, 0x00000000)  returns 0x00 (0000ms, 0284ms total)
T2C24 000:405 JLINK_WriteReg(R5, 0x00000000)  returns 0x00 (0000ms, 0284ms total)
T2C24 000:405 JLINK_WriteReg(R6, 0x00000000)  returns 0x00 (0000ms, 0284ms total)
T2C24 000:405 JLINK_WriteReg(R7, 0x00000000)  returns 0x00 (0000ms, 0284ms total)
T2C24 000:405 JLINK_WriteReg(R8, 0x00000000)  returns 0x00 (0000ms, 0284ms total)
T2C24 000:405 JLINK_WriteReg(R9, 0x20000104)  returns 0x00 (0000ms, 0284ms total)
T2C24 000:405 JLINK_WriteReg(R10, 0x00000000)  returns 0x00 (0000ms, 0284ms total)
T2C24 000:405 JLINK_WriteReg(R11, 0x00000000)  returns 0x00 (0000ms, 0284ms total)
T2C24 000:405 JLINK_WriteReg(R12, 0x00000000)  returns 0x00 (0000ms, 0284ms total)
T2C24 000:405 JLINK_WriteReg(R13 (SP), 0x20004000)  returns 0x00 (0000ms, 0284ms total)
T2C24 000:405 JLINK_WriteReg(R14, 0x20000001)  returns 0x00 (0000ms, 0284ms total)
T2C24 000:405 JLINK_WriteReg(R15 (PC), 0x20000048)  returns 0x00 (0000ms, 0284ms total)
T2C24 000:405 JLINK_WriteReg(XPSR, 0x01000000)  returns 0x00 (0000ms, 0284ms total)
T2C24 000:405 JLINK_WriteReg(MSP, 0x20004000)  returns 0x00 (0000ms, 0284ms total)
T2C24 000:405 JLINK_WriteReg(PSP, 0x20004000)  returns 0x00 (0000ms, 0284ms total)
T2C24 000:405 JLINK_WriteReg(CFBP, 0x00000000)  returns 0x00 (0000ms, 0284ms total)
T2C24 000:405 JLINK_SetBPEx(Addr = 0x20000000, Type = 0xFFFFFFF2)  returns 0x00000002 (0000ms, 0284ms total)
T2C24 000:405 JLINK_Go() -- CPU_ReadMem(4 bytes @ 0xE0001000) (0002ms, 0286ms total)
T2C24 000:407 JLINK_IsHalted()  returns FALSE (0001ms, 0287ms total)
T2C24 000:476 JLINK_IsHalted() -- CPU_ReadMem(2 bytes @ 0x20000000)  returns TRUE (0003ms, 0289ms total)
T2C24 000:480 JLINK_ReadReg(R15 (PC))  returns 0x20000000 (0000ms, 0286ms total)
T2C24 000:480 JLINK_ClrBPEx(BPHandle = 0x00000002)  returns 0x00 (0000ms, 0286ms total)
T2C24 000:480 JLINK_ReadReg(R0)  returns 0x00000000 (0000ms, 0286ms total)
T2C24 000:532 JLINK_WriteReg(R0, 0x00000001)  returns 0x00 (0000ms, 0286ms total)
T2C24 000:532 JLINK_WriteReg(R1, 0x00B71B00)  returns 0x00 (0000ms, 0286ms total)
T2C24 000:532 JLINK_WriteReg(R2, 0x00000001)  returns 0x00 (0000ms, 0286ms total)
T2C24 000:532 JLINK_WriteReg(R3, 0x00000000)  returns 0x00 (0000ms, 0286ms total)
T2C24 000:532 JLINK_WriteReg(R4, 0x00000000)  returns 0x00 (0000ms, 0286ms total)
T2C24 000:532 JLINK_WriteReg(R5, 0x00000000)  returns 0x00 (0000ms, 0286ms total)
T2C24 000:532 JLINK_WriteReg(R6, 0x00000000)  returns 0x00 (0000ms, 0286ms total)
T2C24 000:532 JLINK_WriteReg(R7, 0x00000000)  returns 0x00 (0000ms, 0286ms total)
T2C24 000:532 JLINK_WriteReg(R8, 0x00000000)  returns 0x00 (0000ms, 0286ms total)
T2C24 000:532 JLINK_WriteReg(R9, 0x20000104)  returns 0x00 (0000ms, 0286ms total)
T2C24 000:532 JLINK_WriteReg(R10, 0x00000000)  returns 0x00 (0000ms, 0286ms total)
T2C24 000:532 JLINK_WriteReg(R11, 0x00000000)  returns 0x00 (0000ms, 0286ms total)
T2C24 000:532 JLINK_WriteReg(R12, 0x00000000)  returns 0x00 (0000ms, 0286ms total)
T2C24 000:532 JLINK_WriteReg(R13 (SP), 0x20004000)  returns 0x00 (0000ms, 0286ms total)
T2C24 000:532 JLINK_WriteReg(R14, 0x20000001)  returns 0x00 (0000ms, 0286ms total)
T2C24 000:532 JLINK_WriteReg(R15 (PC), 0x20000044)  returns 0x00 (0000ms, 0286ms total)
T2C24 000:532 JLINK_WriteReg(XPSR, 0x01000000)  returns 0x00 (0000ms, 0286ms total)
T2C24 000:532 JLINK_WriteReg(MSP, 0x20004000)  returns 0x00 (0000ms, 0286ms total)
T2C24 000:532 JLINK_WriteReg(PSP, 0x20004000)  returns 0x00 (0000ms, 0286ms total)
T2C24 000:532 JLINK_WriteReg(CFBP, 0x00000000)  returns 0x00 (0000ms, 0286ms total)
T2C24 000:532 JLINK_SetBPEx(Addr = 0x20000000, Type = 0xFFFFFFF2)  returns 0x00000003 (0000ms, 0286ms total)
T2C24 000:532 JLINK_Go() -- CPU_ReadMem(4 bytes @ 0xE0001000) (0003ms, 0289ms total)
T2C24 000:535 JLINK_IsHalted() -- CPU_ReadMem(2 bytes @ 0x20000000)  returns TRUE (0004ms, 0293ms total)
T2C24 000:539 JLINK_ReadReg(R15 (PC))  returns 0x20000000 (0000ms, 0289ms total)
T2C24 000:539 JLINK_ClrBPEx(BPHandle = 0x00000003)  returns 0x00 (0000ms, 0289ms total)
T2C24 000:539 JLINK_ReadReg(R0)  returns 0x00000000 (0000ms, 0289ms total)
T2C24 000:544 JLINK_WriteMem(0x20000000, 0x0108 Bytes, ...) - Data: 00 BE 0A E0 0D 78 2D 06 68 40 08 24 40 00 00 D3 ... -- CPU_WriteMem(264 bytes @ 0x20000000)  returns 0x108 (0002ms, 0291ms total)
T2C24 000:547 JLINK_WriteReg(R0, 0x00000000)  returns 0x00 (0000ms, 0292ms total)
T2C24 000:547 JLINK_WriteReg(R1, 0x00B71B00)  returns 0x00 (0000ms, 0292ms total)
T2C24 000:547 JLINK_WriteReg(R2, 0x00000002)  returns 0x00 (0000ms, 0292ms total)
T2C24 000:547 JLINK_WriteReg(R3, 0x00000000)  returns 0x00 (0000ms, 0292ms total)
T2C24 000:547 JLINK_WriteReg(R4, 0x00000000)  returns 0x00 (0000ms, 0292ms total)
T2C24 000:547 JLINK_WriteReg(R5, 0x00000000)  returns 0x00 (0000ms, 0292ms total)
T2C24 000:547 JLINK_WriteReg(R6, 0x00000000)  returns 0x00 (0000ms, 0292ms total)
T2C24 000:547 JLINK_WriteReg(R7, 0x00000000)  returns 0x00 (0000ms, 0292ms total)
T2C24 000:547 JLINK_WriteReg(R8, 0x00000000)  returns 0x00 (0000ms, 0292ms total)
T2C24 000:547 JLINK_WriteReg(R9, 0x20000104)  returns 0x00 (0000ms, 0292ms total)
T2C24 000:547 JLINK_WriteReg(R10, 0x00000000)  returns 0x00 (0000ms, 0292ms total)
T2C24 000:547 JLINK_WriteReg(R11, 0x00000000)  returns 0x00 (0000ms, 0292ms total)
T2C24 000:547 JLINK_WriteReg(R12, 0x00000000)  returns 0x00 (0000ms, 0292ms total)
T2C24 000:547 JLINK_WriteReg(R13 (SP), 0x20004000)  returns 0x00 (0000ms, 0292ms total)
T2C24 000:547 JLINK_WriteReg(R14, 0x20000001)  returns 0x00 (0000ms, 0292ms total)
T2C24 000:547 JLINK_WriteReg(R15 (PC), 0x20000040)  returns 0x00 (0000ms, 0292ms total)
T2C24 000:547 JLINK_WriteReg(XPSR, 0x01000000)  returns 0x00 (0000ms, 0292ms total)
T2C24 000:547 JLINK_WriteReg(MSP, 0x20004000)  returns 0x00 (0000ms, 0292ms total)
T2C24 000:547 JLINK_WriteReg(PSP, 0x20004000)  returns 0x00 (0000ms, 0292ms total)
T2C24 000:547 JLINK_WriteReg(CFBP, 0x00000000)  returns 0x00 (0000ms, 0292ms total)
T2C24 000:547 JLINK_SetBPEx(Addr = 0x20000000, Type = 0xFFFFFFF2) -- CPU_ReadMem(4 bytes @ 0x20000000) -- CPU_WriteMem(4 bytes @ 0x20000000) -- CPU_ReadMem(4 bytes @ 0x20000000) -- CPU_WriteMem(4 bytes @ 0x20000000) -- CPU_ReadMem(2 bytes @ 0x20000000)  returns 0x00000004 (0004ms, 0296ms total)
T2C24 000:551 JLINK_Go() -- CPU_WriteMem(2 bytes @ 0x20000000) -- CPU_ReadMem(4 bytes @ 0xE0001000) (0004ms, 0300ms total)
T2C24 000:555 JLINK_IsHalted() -- CPU_ReadMem(2 bytes @ 0x20000000)  returns TRUE (0003ms, 0303ms total)
T2C24 000:558 JLINK_ReadReg(R15 (PC))  returns 0x20000000 (0000ms, 0300ms total)
T2C24 000:558 JLINK_ClrBPEx(BPHandle = 0x00000004)  returns 0x00 (0000ms, 0300ms total)
T2C24 000:558 JLINK_ReadReg(R0)  returns 0x00000000 (0000ms, 0300ms total)
T2C24 000:559 JLINK_WriteMem(0x20000108, 0x0EF8 Bytes, ...) - Data: 10 B2 01 20 5D 01 00 00 61 01 00 00 63 01 00 00 ... -- CPU_WriteMem(3832 bytes @ 0x20000108)  returns 0xEF8 (0022ms, 0322ms total)
T2C24 000:581 JLINK_WriteMem(0x20001000, 0x0108 Bytes, ...) - Data: 9A 4D C5 F8 20 41 1A E0 0C 29 18 D2 96 4C 24 34 ... -- CPU_WriteMem(264 bytes @ 0x20001000)  returns 0x108 (0002ms, 0324ms total)
T2C24 000:583 JLINK_WriteReg(R0, 0x00000000)  returns 0x00 (0000ms, 0324ms total)
T2C24 000:583 JLINK_WriteReg(R1, 0x00001000)  returns 0x00 (0000ms, 0324ms total)
T2C24 000:583 JLINK_WriteReg(R2, 0x20000108)  returns 0x00 (0000ms, 0324ms total)
T2C24 000:583 JLINK_WriteReg(R3, 0x00000000)  returns 0x00 (0000ms, 0324ms total)
T2C24 000:583 JLINK_WriteReg(R4, 0x00000000)  returns 0x00 (0000ms, 0324ms total)
T2C24 000:583 JLINK_WriteReg(R5, 0x00000000)  returns 0x00 (0000ms, 0324ms total)
T2C24 000:583 JLINK_WriteReg(R6, 0x00000000)  returns 0x00 (0000ms, 0324ms total)
T2C24 000:583 JLINK_WriteReg(R7, 0x00000000)  returns 0x00 (0000ms, 0324ms total)
T2C24 000:583 JLINK_WriteReg(R8, 0x00000000)  returns 0x00 (0000ms, 0324ms total)
T2C24 000:583 JLINK_WriteReg(R9, 0x20000104)  returns 0x00 (0001ms, 0325ms total)
T2C24 000:584 JLINK_WriteReg(R10, 0x00000000)  returns 0x00 (0000ms, 0325ms total)
T2C24 000:584 JLINK_WriteReg(R11, 0x00000000)  returns 0x00 (0000ms, 0325ms total)
T2C24 000:584 JLINK_WriteReg(R12, 0x00000000)  returns 0x00 (0000ms, 0325ms total)
T2C24 000:584 JLINK_WriteReg(R13 (SP), 0x20004000)  returns 0x00 (0000ms, 0325ms total)
T2C24 000:584 JLINK_WriteReg(R14, 0x20000001)  returns 0x00 (0000ms, 0325ms total)
T2C24 000:584 JLINK_WriteReg(R15 (PC), 0x20000080)  returns 0x00 (0000ms, 0325ms total)
T2C24 000:584 JLINK_WriteReg(XPSR, 0x01000000)  returns 0x00 (0000ms, 0325ms total)
T2C24 000:584 JLINK_WriteReg(MSP, 0x20004000)  returns 0x00 (0000ms, 0325ms total)
T2C24 000:584 JLINK_WriteReg(PSP, 0x20004000)  returns 0x00 (0000ms, 0325ms total)
T2C24 000:584 JLINK_WriteReg(CFBP, 0x00000000)  returns 0x00 (0000ms, 0325ms total)
T2C24 000:584 JLINK_SetBPEx(Addr = 0x20000000, Type = 0xFFFFFFF2)  returns 0x00000005 (0000ms, 0325ms total)
T2C24 000:584 JLINK_Go() -- CPU_ReadMem(4 bytes @ 0xE0001000) (0003ms, 0328ms total)
T2C24 000:587 JLINK_IsHalted()  returns FALSE (0001ms, 0329ms total)
T2C24 000:597 JLINK_IsHalted() -- CPU_ReadMem(2 bytes @ 0x20000000)  returns TRUE (0004ms, 0332ms total)
T2C24 000:601 JLINK_ReadReg(R15 (PC))  returns 0x20000000 (0000ms, 0328ms total)
T2C24 000:601 JLINK_ClrBPEx(BPHandle = 0x00000005)  returns 0x00 (0000ms, 0328ms total)
T2C24 000:601 JLINK_ReadReg(R0)  returns 0x00000000 (0000ms, 0328ms total)
T2C24 000:602 JLINK_WriteMem(0x20000108, 0x0EF8 Bytes, ...) - Data: 68 34 24 68 A1 F1 0C 05 05 EB 85 06 1F 25 B5 40 ... -- CPU_WriteMem(3832 bytes @ 0x20000108)  returns 0xEF8 (0022ms, 0350ms total)
T2C24 000:624 JLINK_WriteMem(0x20001000, 0x0108 Bytes, ...) - Data: 4F F0 80 40 00 68 00 F0 04 00 B0 B1 4F F0 80 40 ... -- CPU_WriteMem(264 bytes @ 0x20001000)  returns 0x108 (0003ms, 0353ms total)
T2C24 000:627 JLINK_WriteReg(R0, 0x00001000)  returns 0x00 (0000ms, 0353ms total)
T2C24 000:627 JLINK_WriteReg(R1, 0x00001000)  returns 0x00 (0000ms, 0353ms total)
T2C24 000:627 JLINK_WriteReg(R2, 0x20000108)  returns 0x00 (0000ms, 0353ms total)
T2C24 000:627 JLINK_WriteReg(R3, 0x00000000)  returns 0x00 (0000ms, 0353ms total)
T2C24 000:627 JLINK_WriteReg(R4, 0x00000000)  returns 0x00 (0000ms, 0353ms total)
T2C24 000:627 JLINK_WriteReg(R5, 0x00000000)  returns 0x00 (0000ms, 0353ms total)
T2C24 000:627 JLINK_WriteReg(R6, 0x00000000)  returns 0x00 (0000ms, 0353ms total)
T2C24 000:627 JLINK_WriteReg(R7, 0x00000000)  returns 0x00 (0000ms, 0353ms total)
T2C24 000:627 JLINK_WriteReg(R8, 0x00000000)  returns 0x00 (0000ms, 0353ms total)
T2C24 000:627 JLINK_WriteReg(R9, 0x20000104)  returns 0x00 (0000ms, 0353ms total)
T2C24 000:627 JLINK_WriteReg(R10, 0x00000000)  returns 0x00 (0000ms, 0353ms total)
T2C24 000:627 JLINK_WriteReg(R11, 0x00000000)  returns 0x00 (0000ms, 0353ms total)
T2C24 000:627 JLINK_WriteReg(R12, 0x00000000)  returns 0x00 (0000ms, 0353ms total)
T2C24 000:627 JLINK_WriteReg(R13 (SP), 0x20004000)  returns 0x00 (0000ms, 0353ms total)
T2C24 000:627 JLINK_WriteReg(R14, 0x20000001)  returns 0x00 (0000ms, 0353ms total)
T2C24 000:627 JLINK_WriteReg(R15 (PC), 0x20000080)  returns 0x00 (0000ms, 0353ms total)
T2C24 000:627 JLINK_WriteReg(XPSR, 0x01000000)  returns 0x00 (0000ms, 0353ms total)
T2C24 000:627 JLINK_WriteReg(MSP, 0x20004000)  returns 0x00 (0000ms, 0353ms total)
T2C24 000:627 JLINK_WriteReg(PSP, 0x20004000)  returns 0x00 (0000ms, 0353ms total)
T2C24 000:627 JLINK_WriteReg(CFBP, 0x00000000)  returns 0x00 (0000ms, 0353ms total)
T2C24 000:627 JLINK_SetBPEx(Addr = 0x20000000, Type = 0xFFFFFFF2)  returns 0x00000006 (0000ms, 0353ms total)
T2C24 000:627 JLINK_Go() -- CPU_ReadMem(4 bytes @ 0xE0001000) (0002ms, 0355ms total)
T2C24 000:629 JLINK_IsHalted()  returns FALSE (0001ms, 0356ms total)
T2C24 000:633 JLINK_IsHalted()  returns FALSE (0001ms, 0356ms total)
T2C24 000:638 JLINK_IsHalted() -- CPU_ReadMem(2 bytes @ 0x20000000)  returns TRUE (0003ms, 0358ms total)
T2C24 000:641 JLINK_ReadReg(R15 (PC))  returns 0x20000000 (0000ms, 0355ms total)
T2C24 000:641 JLINK_ClrBPEx(BPHandle = 0x00000006)  returns 0x00 (0000ms, 0355ms total)
T2C24 000:641 JLINK_ReadReg(R0)  returns 0x00000000 (0000ms, 0355ms total)
T2C24 000:642 JLINK_WriteMem(0x20000108, 0x0EF8 Bytes, ...) - Data: 21 F4 00 71 41 60 70 47 70 B5 04 46 0D 46 60 48 ... -- CPU_WriteMem(3832 bytes @ 0x20000108)  returns 0xEF8 (0022ms, 0377ms total)
T2C24 000:664 JLINK_WriteMem(0x20001000, 0x0108 Bytes, ...) - Data: 27 F8 15 00 0D B9 06 20 80 E7 4F F0 00 0A 01 E0 ... -- CPU_WriteMem(264 bytes @ 0x20001000)  returns 0x108 (0002ms, 0379ms total)
T2C24 000:666 JLINK_WriteReg(R0, 0x00002000)  returns 0x00 (0000ms, 0379ms total)
T2C24 000:666 JLINK_WriteReg(R1, 0x00001000)  returns 0x00 (0000ms, 0379ms total)
T2C24 000:666 JLINK_WriteReg(R2, 0x20000108)  returns 0x00 (0001ms, 0380ms total)
T2C24 000:667 JLINK_WriteReg(R3, 0x00000000)  returns 0x00 (0000ms, 0380ms total)
T2C24 000:667 JLINK_WriteReg(R4, 0x00000000)  returns 0x00 (0000ms, 0380ms total)
T2C24 000:667 JLINK_WriteReg(R5, 0x00000000)  returns 0x00 (0000ms, 0380ms total)
T2C24 000:667 JLINK_WriteReg(R6, 0x00000000)  returns 0x00 (0000ms, 0380ms total)
T2C24 000:667 JLINK_WriteReg(R7, 0x00000000)  returns 0x00 (0000ms, 0380ms total)
T2C24 000:667 JLINK_WriteReg(R8, 0x00000000)  returns 0x00 (0000ms, 0380ms total)
T2C24 000:667 JLINK_WriteReg(R9, 0x20000104)  returns 0x00 (0000ms, 0380ms total)
T2C24 000:667 JLINK_WriteReg(R10, 0x00000000)  returns 0x00 (0000ms, 0380ms total)
T2C24 000:667 JLINK_WriteReg(R11, 0x00000000)  returns 0x00 (0000ms, 0380ms total)
T2C24 000:667 JLINK_WriteReg(R12, 0x00000000)  returns 0x00 (0000ms, 0380ms total)
T2C24 000:667 JLINK_WriteReg(R13 (SP), 0x20004000)  returns 0x00 (0000ms, 0380ms total)
T2C24 000:667 JLINK_WriteReg(R14, 0x20000001)  returns 0x00 (0000ms, 0380ms total)
T2C24 000:667 JLINK_WriteReg(R15 (PC), 0x20000080)  returns 0x00 (0000ms, 0380ms total)
T2C24 000:667 JLINK_WriteReg(XPSR, 0x01000000)  returns 0x00 (0000ms, 0380ms total)
T2C24 000:667 JLINK_WriteReg(MSP, 0x20004000)  returns 0x00 (0000ms, 0380ms total)
T2C24 000:667 JLINK_WriteReg(PSP, 0x20004000)  returns 0x00 (0000ms, 0380ms total)
T2C24 000:667 JLINK_WriteReg(CFBP, 0x00000000)  returns 0x00 (0000ms, 0380ms total)
T2C24 000:667 JLINK_SetBPEx(Addr = 0x20000000, Type = 0xFFFFFFF2)  returns 0x00000007 (0000ms, 0380ms total)
T2C24 000:667 JLINK_Go() -- CPU_ReadMem(4 bytes @ 0xE0001000) (0003ms, 0383ms total)
T2C24 000:670 JLINK_IsHalted()  returns FALSE (0000ms, 0383ms total)
T2C24 000:674 JLINK_IsHalted()  returns FALSE (0001ms, 0384ms total)
T2C24 000:677 JLINK_IsHalted() -- CPU_ReadMem(2 bytes @ 0x20000000)  returns TRUE (0004ms, 0387ms total)
T2C24 000:681 JLINK_ReadReg(R15 (PC))  returns 0x20000000 (0000ms, 0383ms total)
T2C24 000:681 JLINK_ClrBPEx(BPHandle = 0x00000007)  returns 0x00 (0000ms, 0383ms total)
T2C24 000:681 JLINK_ReadReg(R0)  returns 0x00000000 (0000ms, 0383ms total)
T2C24 000:681 JLINK_WriteMem(0x20000108, 0x0EF8 Bytes, ...) - Data: 0E E0 41 2C 03 DB 5A 2C 01 DC 4B F0 02 0B 61 2C ... -- CPU_WriteMem(3832 bytes @ 0x20000108)  returns 0xEF8 (0022ms, 0405ms total)
T2C24 000:704 JLINK_WriteMem(0x20001000, 0x0108 Bytes, ...) - Data: E4 D1 00 BF 03 2E 02 D1 0C 20 12 90 0C E0 07 98 ... -- CPU_WriteMem(264 bytes @ 0x20001000)  returns 0x108 (0002ms, 0407ms total)
T2C24 000:706 JLINK_WriteReg(R0, 0x00003000)  returns 0x00 (0000ms, 0407ms total)
T2C24 000:706 JLINK_WriteReg(R1, 0x00001000)  returns 0x00 (0000ms, 0407ms total)
T2C24 000:706 JLINK_WriteReg(R2, 0x20000108)  returns 0x00 (0000ms, 0407ms total)
T2C24 000:706 JLINK_WriteReg(R3, 0x00000000)  returns 0x00 (0000ms, 0407ms total)
T2C24 000:706 JLINK_WriteReg(R4, 0x00000000)  returns 0x00 (0000ms, 0407ms total)
T2C24 000:706 JLINK_WriteReg(R5, 0x00000000)  returns 0x00 (0000ms, 0407ms total)
T2C24 000:706 JLINK_WriteReg(R6, 0x00000000)  returns 0x00 (0000ms, 0407ms total)
T2C24 000:706 JLINK_WriteReg(R7, 0x00000000)  returns 0x00 (0000ms, 0407ms total)
T2C24 000:706 JLINK_WriteReg(R8, 0x00000000)  returns 0x00 (0000ms, 0407ms total)
T2C24 000:706 JLINK_WriteReg(R9, 0x20000104)  returns 0x00 (0000ms, 0407ms total)
T2C24 000:706 JLINK_WriteReg(R10, 0x00000000)  returns 0x00 (0000ms, 0407ms total)
T2C24 000:706 JLINK_WriteReg(R11, 0x00000000)  returns 0x00 (0000ms, 0407ms total)
T2C24 000:706 JLINK_WriteReg(R12, 0x00000000)  returns 0x00 (0000ms, 0407ms total)
T2C24 000:706 JLINK_WriteReg(R13 (SP), 0x20004000)  returns 0x00 (0001ms, 0408ms total)
T2C24 000:707 JLINK_WriteReg(R14, 0x20000001)  returns 0x00 (0000ms, 0408ms total)
T2C24 000:707 JLINK_WriteReg(R15 (PC), 0x20000080)  returns 0x00 (0000ms, 0408ms total)
T2C24 000:707 JLINK_WriteReg(XPSR, 0x01000000)  returns 0x00 (0000ms, 0408ms total)
T2C24 000:707 JLINK_WriteReg(MSP, 0x20004000)  returns 0x00 (0000ms, 0408ms total)
T2C24 000:707 JLINK_WriteReg(PSP, 0x20004000)  returns 0x00 (0000ms, 0408ms total)
T2C24 000:707 JLINK_WriteReg(CFBP, 0x00000000)  returns 0x00 (0000ms, 0408ms total)
T2C24 000:707 JLINK_SetBPEx(Addr = 0x20000000, Type = 0xFFFFFFF2)  returns 0x00000008 (0000ms, 0408ms total)
T2C24 000:707 JLINK_Go() -- CPU_ReadMem(4 bytes @ 0xE0001000) (0003ms, 0411ms total)
T2C24 000:710 JLINK_IsHalted()  returns FALSE (0001ms, 0412ms total)
T2C24 000:715 JLINK_IsHalted()  returns FALSE (0000ms, 0411ms total)
T2C24 000:717 JLINK_IsHalted() -- CPU_ReadMem(2 bytes @ 0x20000000)  returns TRUE (0003ms, 0414ms total)
T2C24 000:720 JLINK_ReadReg(R15 (PC))  returns 0x20000000 (0000ms, 0411ms total)
T2C24 000:720 JLINK_ClrBPEx(BPHandle = 0x00000008)  returns 0x00 (0000ms, 0411ms total)
T2C24 000:720 JLINK_ReadReg(R0)  returns 0x00000000 (0000ms, 0411ms total)
T2C24 000:721 JLINK_WriteMem(0x20000108, 0x0EF8 Bytes, ...) - Data: 16 46 03 98 01 90 01 A8 00 F0 14 FE 05 46 00 2D ... -- CPU_WriteMem(3832 bytes @ 0x20000108)  returns 0xEF8 (0022ms, 0433ms total)
T2C24 000:743 JLINK_WriteMem(0x20001000, 0x0108 Bytes, ...) - Data: 03 F0 38 FC B8 42 01 D1 E0 89 60 B9 20 7F 20 F0 ... -- CPU_WriteMem(264 bytes @ 0x20001000)  returns 0x108 (0003ms, 0436ms total)
T2C24 000:746 JLINK_WriteReg(R0, 0x00004000)  returns 0x00 (0000ms, 0436ms total)
T2C24 000:746 JLINK_WriteReg(R1, 0x00001000)  returns 0x00 (0000ms, 0436ms total)
T2C24 000:746 JLINK_WriteReg(R2, 0x20000108)  returns 0x00 (0000ms, 0436ms total)
T2C24 000:746 JLINK_WriteReg(R3, 0x00000000)  returns 0x00 (0000ms, 0436ms total)
T2C24 000:746 JLINK_WriteReg(R4, 0x00000000)  returns 0x00 (0000ms, 0436ms total)
T2C24 000:746 JLINK_WriteReg(R5, 0x00000000)  returns 0x00 (0000ms, 0436ms total)
T2C24 000:746 JLINK_WriteReg(R6, 0x00000000)  returns 0x00 (0000ms, 0436ms total)
T2C24 000:746 JLINK_WriteReg(R7, 0x00000000)  returns 0x00 (0000ms, 0436ms total)
T2C24 000:746 JLINK_WriteReg(R8, 0x00000000)  returns 0x00 (0000ms, 0436ms total)
T2C24 000:746 JLINK_WriteReg(R9, 0x20000104)  returns 0x00 (0000ms, 0436ms total)
T2C24 000:746 JLINK_WriteReg(R10, 0x00000000)  returns 0x00 (0000ms, 0436ms total)
T2C24 000:746 JLINK_WriteReg(R11, 0x00000000)  returns 0x00 (0000ms, 0436ms total)
T2C24 000:746 JLINK_WriteReg(R12, 0x00000000)  returns 0x00 (0000ms, 0436ms total)
T2C24 000:746 JLINK_WriteReg(R13 (SP), 0x20004000)  returns 0x00 (0000ms, 0436ms total)
T2C24 000:746 JLINK_WriteReg(R14, 0x20000001)  returns 0x00 (0000ms, 0436ms total)
T2C24 000:746 JLINK_WriteReg(R15 (PC), 0x20000080)  returns 0x00 (0000ms, 0436ms total)
T2C24 000:746 JLINK_WriteReg(XPSR, 0x01000000)  returns 0x00 (0000ms, 0436ms total)
T2C24 000:746 JLINK_WriteReg(MSP, 0x20004000)  returns 0x00 (0000ms, 0436ms total)
T2C24 000:746 JLINK_WriteReg(PSP, 0x20004000)  returns 0x00 (0000ms, 0436ms total)
T2C24 000:747 JLINK_WriteReg(CFBP, 0x00000000)  returns 0x00 (0000ms, 0437ms total)
T2C24 000:747 JLINK_SetBPEx(Addr = 0x20000000, Type = 0xFFFFFFF2)  returns 0x00000009 (0000ms, 0437ms total)
T2C24 000:747 JLINK_Go() -- CPU_ReadMem(4 bytes @ 0xE0001000) (0002ms, 0439ms total)
T2C24 000:749 JLINK_IsHalted()  returns FALSE (0001ms, 0440ms total)
T2C24 000:757 JLINK_IsHalted() -- CPU_ReadMem(2 bytes @ 0x20000000)  returns TRUE (0003ms, 0442ms total)
T2C24 000:760 JLINK_ReadReg(R15 (PC))  returns 0x20000000 (0000ms, 0439ms total)
T2C24 000:760 JLINK_ClrBPEx(BPHandle = 0x00000009)  returns 0x00 (0000ms, 0439ms total)
T2C24 000:760 JLINK_ReadReg(R0)  returns 0x00000000 (0000ms, 0439ms total)
T2C24 000:761 JLINK_WriteMem(0x20000108, 0x0EF8 Bytes, ...) - Data: 16 00 B5 F9 02 10 88 42 06 D0 B5 F9 02 20 B5 F9 ... -- CPU_WriteMem(3832 bytes @ 0x20000108)  returns 0xEF8 (0022ms, 0461ms total)
T2C24 000:783 JLINK_WriteMem(0x20001000, 0x0108 Bytes, ...) - Data: 06 90 2C 20 00 5D 01 90 BD F8 18 00 AD F8 00 00 ... -- CPU_WriteMem(264 bytes @ 0x20001000)  returns 0x108 (0003ms, 0464ms total)
T2C24 000:786 JLINK_WriteReg(R0, 0x00005000)  returns 0x00 (0000ms, 0464ms total)
T2C24 000:786 JLINK_WriteReg(R1, 0x00001000)  returns 0x00 (0000ms, 0464ms total)
T2C24 000:786 JLINK_WriteReg(R2, 0x20000108)  returns 0x00 (0000ms, 0464ms total)
T2C24 000:786 JLINK_WriteReg(R3, 0x00000000)  returns 0x00 (0000ms, 0464ms total)
T2C24 000:786 JLINK_WriteReg(R4, 0x00000000)  returns 0x00 (0000ms, 0464ms total)
T2C24 000:786 JLINK_WriteReg(R5, 0x00000000)  returns 0x00 (0000ms, 0464ms total)
T2C24 000:786 JLINK_WriteReg(R6, 0x00000000)  returns 0x00 (0000ms, 0464ms total)
T2C24 000:786 JLINK_WriteReg(R7, 0x00000000)  returns 0x00 (0000ms, 0464ms total)
T2C24 000:786 JLINK_WriteReg(R8, 0x00000000)  returns 0x00 (0000ms, 0464ms total)
T2C24 000:786 JLINK_WriteReg(R9, 0x20000104)  returns 0x00 (0000ms, 0464ms total)
T2C24 000:786 JLINK_WriteReg(R10, 0x00000000)  returns 0x00 (0000ms, 0464ms total)
T2C24 000:786 JLINK_WriteReg(R11, 0x00000000)  returns 0x00 (0000ms, 0464ms total)
T2C24 000:786 JLINK_WriteReg(R12, 0x00000000)  returns 0x00 (0000ms, 0464ms total)
T2C24 000:786 JLINK_WriteReg(R13 (SP), 0x20004000)  returns 0x00 (0000ms, 0464ms total)
T2C24 000:786 JLINK_WriteReg(R14, 0x20000001)  returns 0x00 (0000ms, 0464ms total)
T2C24 000:786 JLINK_WriteReg(R15 (PC), 0x20000080)  returns 0x00 (0000ms, 0464ms total)
T2C24 000:786 JLINK_WriteReg(XPSR, 0x01000000)  returns 0x00 (0000ms, 0464ms total)
T2C24 000:786 JLINK_WriteReg(MSP, 0x20004000)  returns 0x00 (0000ms, 0464ms total)
T2C24 000:786 JLINK_WriteReg(PSP, 0x20004000)  returns 0x00 (0000ms, 0464ms total)
T2C24 000:786 JLINK_WriteReg(CFBP, 0x00000000)  returns 0x00 (0000ms, 0464ms total)
T2C24 000:786 JLINK_SetBPEx(Addr = 0x20000000, Type = 0xFFFFFFF2)  returns 0x0000000A (0000ms, 0464ms total)
T2C24 000:786 JLINK_Go() -- CPU_ReadMem(4 bytes @ 0xE0001000) (0003ms, 0467ms total)
T2C24 000:789 JLINK_IsHalted()  returns FALSE (0001ms, 0468ms total)
T2C24 000:795 JLINK_IsHalted()  returns FALSE (0000ms, 0467ms total)
T2C24 000:797 JLINK_IsHalted() -- CPU_ReadMem(2 bytes @ 0x20000000)  returns TRUE (0003ms, 0470ms total)
T2C24 000:800 JLINK_ReadReg(R15 (PC))  returns 0x20000000 (0000ms, 0467ms total)
T2C24 000:800 JLINK_ClrBPEx(BPHandle = 0x0000000A)  returns 0x00 (0000ms, 0467ms total)
T2C24 000:800 JLINK_ReadReg(R0)  returns 0x00000000 (0000ms, 0467ms total)
T2C24 000:800 JLINK_WriteMem(0x20000108, 0x0EF8 Bytes, ...) - Data: 28 46 00 F0 F7 FB A0 89 68 B1 A0 7B 58 B1 22 46 ... -- CPU_WriteMem(3832 bytes @ 0x20000108)  returns 0xEF8 (0023ms, 0490ms total)
T2C24 000:823 JLINK_WriteMem(0x20001000, 0x0108 Bytes, ...) - Data: 91 F8 24 00 00 F0 0F 00 70 47 09 6A 00 29 F1 D1 ... -- CPU_WriteMem(264 bytes @ 0x20001000)  returns 0x108 (0002ms, 0492ms total)
T2C24 000:825 JLINK_WriteReg(R0, 0x00006000)  returns 0x00 (0000ms, 0492ms total)
T2C24 000:825 JLINK_WriteReg(R1, 0x00001000)  returns 0x00 (0000ms, 0492ms total)
T2C24 000:826 JLINK_WriteReg(R2, 0x20000108)  returns 0x00 (0000ms, 0493ms total)
T2C24 000:826 JLINK_WriteReg(R3, 0x00000000)  returns 0x00 (0000ms, 0493ms total)
T2C24 000:826 JLINK_WriteReg(R4, 0x00000000)  returns 0x00 (0000ms, 0493ms total)
T2C24 000:826 JLINK_WriteReg(R5, 0x00000000)  returns 0x00 (0000ms, 0493ms total)
T2C24 000:826 JLINK_WriteReg(R6, 0x00000000)  returns 0x00 (0000ms, 0493ms total)
T2C24 000:826 JLINK_WriteReg(R7, 0x00000000)  returns 0x00 (0000ms, 0493ms total)
T2C24 000:826 JLINK_WriteReg(R8, 0x00000000)  returns 0x00 (0000ms, 0493ms total)
T2C24 000:826 JLINK_WriteReg(R9, 0x20000104)  returns 0x00 (0000ms, 0493ms total)
T2C24 000:826 JLINK_WriteReg(R10, 0x00000000)  returns 0x00 (0000ms, 0493ms total)
T2C24 000:826 JLINK_WriteReg(R11, 0x00000000)  returns 0x00 (0000ms, 0493ms total)
T2C24 000:826 JLINK_WriteReg(R12, 0x00000000)  returns 0x00 (0000ms, 0493ms total)
T2C24 000:826 JLINK_WriteReg(R13 (SP), 0x20004000)  returns 0x00 (0000ms, 0493ms total)
T2C24 000:826 JLINK_WriteReg(R14, 0x20000001)  returns 0x00 (0000ms, 0493ms total)
T2C24 000:826 JLINK_WriteReg(R15 (PC), 0x20000080)  returns 0x00 (0000ms, 0493ms total)
T2C24 000:826 JLINK_WriteReg(XPSR, 0x01000000)  returns 0x00 (0000ms, 0493ms total)
T2C24 000:826 JLINK_WriteReg(MSP, 0x20004000)  returns 0x00 (0000ms, 0493ms total)
T2C24 000:826 JLINK_WriteReg(PSP, 0x20004000)  returns 0x00 (0000ms, 0493ms total)
T2C24 000:826 JLINK_WriteReg(CFBP, 0x00000000)  returns 0x00 (0000ms, 0493ms total)
T2C24 000:826 JLINK_SetBPEx(Addr = 0x20000000, Type = 0xFFFFFFF2)  returns 0x0000000B (0000ms, 0493ms total)
T2C24 000:826 JLINK_Go() -- CPU_ReadMem(4 bytes @ 0xE0001000) (0002ms, 0495ms total)
T2C24 000:828 JLINK_IsHalted()  returns FALSE (0001ms, 0496ms total)
T2C24 000:833 JLINK_IsHalted()  returns FALSE (0000ms, 0495ms total)
T2C24 000:836 JLINK_IsHalted() -- CPU_ReadMem(2 bytes @ 0x20000000)  returns TRUE (0003ms, 0498ms total)
T2C24 000:839 JLINK_ReadReg(R15 (PC))  returns 0x20000000 (0000ms, 0495ms total)
T2C24 000:839 JLINK_ClrBPEx(BPHandle = 0x0000000B)  returns 0x00 (0000ms, 0495ms total)
T2C24 000:839 JLINK_ReadReg(R0)  returns 0x00000000 (0000ms, 0495ms total)
T2C24 000:839 JLINK_WriteMem(0x20000108, 0x0EF8 Bytes, ...) - Data: 20 46 61 69 88 47 00 BF CD E7 70 B5 04 46 94 F8 ... -- CPU_WriteMem(3832 bytes @ 0x20000108)  returns 0xEF8 (0023ms, 0518ms total)
T2C24 000:862 JLINK_WriteMem(0x20001000, 0x0108 Bytes, ...) - Data: 98 47 81 46 B9 F1 01 0F 02 D0 48 46 BD E8 F0 87 ... -- CPU_WriteMem(264 bytes @ 0x20001000)  returns 0x108 (0002ms, 0520ms total)
T2C24 000:864 JLINK_WriteReg(R0, 0x00007000)  returns 0x00 (0001ms, 0521ms total)
T2C24 000:865 JLINK_WriteReg(R1, 0x00001000)  returns 0x00 (0000ms, 0521ms total)
T2C24 000:865 JLINK_WriteReg(R2, 0x20000108)  returns 0x00 (0000ms, 0521ms total)
T2C24 000:865 JLINK_WriteReg(R3, 0x00000000)  returns 0x00 (0000ms, 0521ms total)
T2C24 000:865 JLINK_WriteReg(R4, 0x00000000)  returns 0x00 (0000ms, 0521ms total)
T2C24 000:865 JLINK_WriteReg(R5, 0x00000000)  returns 0x00 (0000ms, 0521ms total)
T2C24 000:865 JLINK_WriteReg(R6, 0x00000000)  returns 0x00 (0000ms, 0521ms total)
T2C24 000:865 JLINK_WriteReg(R7, 0x00000000)  returns 0x00 (0000ms, 0521ms total)
T2C24 000:865 JLINK_WriteReg(R8, 0x00000000)  returns 0x00 (0000ms, 0521ms total)
T2C24 000:865 JLINK_WriteReg(R9, 0x20000104)  returns 0x00 (0000ms, 0521ms total)
T2C24 000:865 JLINK_WriteReg(R10, 0x00000000)  returns 0x00 (0000ms, 0521ms total)
T2C24 000:865 JLINK_WriteReg(R11, 0x00000000)  returns 0x00 (0000ms, 0521ms total)
T2C24 000:865 JLINK_WriteReg(R12, 0x00000000)  returns 0x00 (0000ms, 0521ms total)
T2C24 000:865 JLINK_WriteReg(R13 (SP), 0x20004000)  returns 0x00 (0000ms, 0521ms total)
T2C24 000:865 JLINK_WriteReg(R14, 0x20000001)  returns 0x00 (0000ms, 0521ms total)
T2C24 000:865 JLINK_WriteReg(R15 (PC), 0x20000080)  returns 0x00 (0000ms, 0521ms total)
T2C24 000:865 JLINK_WriteReg(XPSR, 0x01000000)  returns 0x00 (0000ms, 0521ms total)
T2C24 000:865 JLINK_WriteReg(MSP, 0x20004000)  returns 0x00 (0000ms, 0521ms total)
T2C24 000:865 JLINK_WriteReg(PSP, 0x20004000)  returns 0x00 (0000ms, 0521ms total)
T2C24 000:865 JLINK_WriteReg(CFBP, 0x00000000)  returns 0x00 (0000ms, 0521ms total)
T2C24 000:865 JLINK_SetBPEx(Addr = 0x20000000, Type = 0xFFFFFFF2)  returns 0x0000000C (0000ms, 0521ms total)
T2C24 000:865 JLINK_Go() -- CPU_ReadMem(4 bytes @ 0xE0001000) (0003ms, 0524ms total)
T2C24 000:868 JLINK_IsHalted()  returns FALSE (0001ms, 0525ms total)
T2C24 000:878 JLINK_IsHalted() -- CPU_ReadMem(2 bytes @ 0x20000000)  returns TRUE (0005ms, 0529ms total)
T2C24 000:883 JLINK_ReadReg(R15 (PC))  returns 0x20000000 (0000ms, 0524ms total)
T2C24 000:883 JLINK_ClrBPEx(BPHandle = 0x0000000C)  returns 0x00 (0000ms, 0524ms total)
T2C24 000:883 JLINK_ReadReg(R0)  returns 0x00000000 (0000ms, 0524ms total)
T2C24 000:884 JLINK_WriteMem(0x20000108, 0x0EF8 Bytes, ...) - Data: 01 48 00 68 70 47 00 00 14 00 00 20 70 B5 06 46 ... -- CPU_WriteMem(3832 bytes @ 0x20000108)  returns 0xEF8 (0022ms, 0546ms total)
T2C24 000:906 JLINK_WriteMem(0x20001000, 0x0108 Bytes, ...) - Data: 09 1A 01 4A 11 80 70 47 1C 00 00 20 2D E9 F0 41 ... -- CPU_WriteMem(264 bytes @ 0x20001000)  returns 0x108 (0003ms, 0549ms total)
T2C24 000:909 JLINK_WriteReg(R0, 0x00008000)  returns 0x00 (0000ms, 0549ms total)
T2C24 000:909 JLINK_WriteReg(R1, 0x00001000)  returns 0x00 (0000ms, 0549ms total)
T2C24 000:909 JLINK_WriteReg(R2, 0x20000108)  returns 0x00 (0000ms, 0549ms total)
T2C24 000:909 JLINK_WriteReg(R3, 0x00000000)  returns 0x00 (0000ms, 0549ms total)
T2C24 000:909 JLINK_WriteReg(R4, 0x00000000)  returns 0x00 (0000ms, 0549ms total)
T2C24 000:909 JLINK_WriteReg(R5, 0x00000000)  returns 0x00 (0000ms, 0549ms total)
T2C24 000:909 JLINK_WriteReg(R6, 0x00000000)  returns 0x00 (0000ms, 0549ms total)
T2C24 000:909 JLINK_WriteReg(R7, 0x00000000)  returns 0x00 (0000ms, 0549ms total)
T2C24 000:909 JLINK_WriteReg(R8, 0x00000000)  returns 0x00 (0000ms, 0549ms total)
T2C24 000:909 JLINK_WriteReg(R9, 0x20000104)  returns 0x00 (0000ms, 0549ms total)
T2C24 000:909 JLINK_WriteReg(R10, 0x00000000)  returns 0x00 (0000ms, 0549ms total)
T2C24 000:909 JLINK_WriteReg(R11, 0x00000000)  returns 0x00 (0000ms, 0549ms total)
T2C24 000:909 JLINK_WriteReg(R12, 0x00000000)  returns 0x00 (0000ms, 0549ms total)
T2C24 000:909 JLINK_WriteReg(R13 (SP), 0x20004000)  returns 0x00 (0000ms, 0549ms total)
T2C24 000:909 JLINK_WriteReg(R14, 0x20000001)  returns 0x00 (0000ms, 0549ms total)
T2C24 000:909 JLINK_WriteReg(R15 (PC), 0x20000080)  returns 0x00 (0000ms, 0549ms total)
T2C24 000:909 JLINK_WriteReg(XPSR, 0x01000000)  returns 0x00 (0000ms, 0549ms total)
T2C24 000:909 JLINK_WriteReg(MSP, 0x20004000)  returns 0x00 (0000ms, 0549ms total)
T2C24 000:909 JLINK_WriteReg(PSP, 0x20004000)  returns 0x00 (0000ms, 0549ms total)
T2C24 000:909 JLINK_WriteReg(CFBP, 0x00000000)  returns 0x00 (0000ms, 0549ms total)
T2C24 000:909 JLINK_SetBPEx(Addr = 0x20000000, Type = 0xFFFFFFF2)  returns 0x0000000D (0000ms, 0549ms total)
T2C24 000:909 JLINK_Go() -- CPU_ReadMem(4 bytes @ 0xE0001000) (0003ms, 0552ms total)
T2C24 000:912 JLINK_IsHalted()  returns FALSE (0001ms, 0553ms total)
T2C24 000:916 JLINK_IsHalted()  returns FALSE (0000ms, 0552ms total)
T2C24 000:919 JLINK_IsHalted()  returns FALSE (0000ms, 0552ms total)
T2C24 000:921 JLINK_IsHalted() -- CPU_ReadMem(2 bytes @ 0x20000000)  returns TRUE (0004ms, 0556ms total)
T2C24 000:925 JLINK_ReadReg(R15 (PC))  returns 0x20000000 (0000ms, 0552ms total)
T2C24 000:925 JLINK_ClrBPEx(BPHandle = 0x0000000D)  returns 0x00 (0000ms, 0552ms total)
T2C24 000:925 JLINK_ReadReg(R0)  returns 0x00000000 (0000ms, 0552ms total)
T2C24 000:925 JLINK_WriteMem(0x20000108, 0x0EF8 Bytes, ...) - Data: B8 10 01 84 E1 49 41 62 02 21 01 85 41 85 FF 21 ... -- CPU_WriteMem(3832 bytes @ 0x20000108)  returns 0xEF8 (0022ms, 0574ms total)
T2C24 000:947 JLINK_WriteMem(0x20001000, 0x0108 Bytes, ...) - Data: 00 E0 02 20 82 46 38 46 FB F7 E9 FA 83 46 B7 F9 ... -- CPU_WriteMem(264 bytes @ 0x20001000)  returns 0x108 (0003ms, 0577ms total)
T2C24 000:950 JLINK_WriteReg(R0, 0x00009000)  returns 0x00 (0000ms, 0577ms total)
T2C24 000:950 JLINK_WriteReg(R1, 0x00001000)  returns 0x00 (0000ms, 0577ms total)
T2C24 000:950 JLINK_WriteReg(R2, 0x20000108)  returns 0x00 (0000ms, 0577ms total)
T2C24 000:950 JLINK_WriteReg(R3, 0x00000000)  returns 0x00 (0000ms, 0577ms total)
T2C24 000:950 JLINK_WriteReg(R4, 0x00000000)  returns 0x00 (0000ms, 0577ms total)
T2C24 000:950 JLINK_WriteReg(R5, 0x00000000)  returns 0x00 (0000ms, 0577ms total)
T2C24 000:950 JLINK_WriteReg(R6, 0x00000000)  returns 0x00 (0000ms, 0577ms total)
T2C24 000:950 JLINK_WriteReg(R7, 0x00000000)  returns 0x00 (0000ms, 0577ms total)
T2C24 000:950 JLINK_WriteReg(R8, 0x00000000)  returns 0x00 (0000ms, 0577ms total)
T2C24 000:950 JLINK_WriteReg(R9, 0x20000104)  returns 0x00 (0000ms, 0577ms total)
T2C24 000:950 JLINK_WriteReg(R10, 0x00000000)  returns 0x00 (0000ms, 0577ms total)
T2C24 000:950 JLINK_WriteReg(R11, 0x00000000)  returns 0x00 (0000ms, 0577ms total)
T2C24 000:950 JLINK_WriteReg(R12, 0x00000000)  returns 0x00 (0000ms, 0577ms total)
T2C24 000:950 JLINK_WriteReg(R13 (SP), 0x20004000)  returns 0x00 (0000ms, 0577ms total)
T2C24 000:950 JLINK_WriteReg(R14, 0x20000001)  returns 0x00 (0000ms, 0577ms total)
T2C24 000:950 JLINK_WriteReg(R15 (PC), 0x20000080)  returns 0x00 (0000ms, 0577ms total)
T2C24 000:950 JLINK_WriteReg(XPSR, 0x01000000)  returns 0x00 (0000ms, 0577ms total)
T2C24 000:950 JLINK_WriteReg(MSP, 0x20004000)  returns 0x00 (0000ms, 0577ms total)
T2C24 000:950 JLINK_WriteReg(PSP, 0x20004000)  returns 0x00 (0000ms, 0577ms total)
T2C24 000:950 JLINK_WriteReg(CFBP, 0x00000000)  returns 0x00 (0000ms, 0577ms total)
T2C24 000:950 JLINK_SetBPEx(Addr = 0x20000000, Type = 0xFFFFFFF2)  returns 0x0000000E (0000ms, 0577ms total)
T2C24 000:950 JLINK_Go() -- CPU_ReadMem(4 bytes @ 0xE0001000) (0003ms, 0580ms total)
T2C24 000:953 JLINK_IsHalted()  returns FALSE (0001ms, 0581ms total)
T2C24 000:956 JLINK_IsHalted()  returns FALSE (0000ms, 0580ms total)
T2C24 000:959 JLINK_IsHalted()  returns FALSE (0000ms, 0580ms total)
T2C24 000:961 JLINK_IsHalted() -- CPU_ReadMem(2 bytes @ 0x20000000)  returns TRUE (0005ms, 0585ms total)
T2C24 000:966 JLINK_ReadReg(R15 (PC))  returns 0x20000000 (0000ms, 0580ms total)
T2C24 000:966 JLINK_ClrBPEx(BPHandle = 0x0000000E)  returns 0x00 (0000ms, 0580ms total)
T2C24 000:966 JLINK_ReadReg(R0)  returns 0x00000000 (0000ms, 0580ms total)
T2C24 000:967 JLINK_WriteMem(0x20000108, 0x0EF8 Bytes, ...) - Data: FB F7 99 FD 05 90 BD F9 36 90 75 E0 00 25 67 E0 ... -- CPU_WriteMem(3832 bytes @ 0x20000108)  returns 0xEF8 (0022ms, 0602ms total)
T2C24 000:989 JLINK_WriteMem(0x20001000, 0x0108 Bytes, ...) - Data: 04 99 FA F7 A0 FD 02 90 A0 1C BD F8 08 10 21 82 ... -- CPU_WriteMem(264 bytes @ 0x20001000)  returns 0x108 (0003ms, 0605ms total)
T2C24 000:992 JLINK_WriteReg(R0, 0x0000A000)  returns 0x00 (0000ms, 0605ms total)
T2C24 000:992 JLINK_WriteReg(R1, 0x00001000)  returns 0x00 (0000ms, 0605ms total)
T2C24 000:992 JLINK_WriteReg(R2, 0x20000108)  returns 0x00 (0000ms, 0605ms total)
T2C24 000:992 JLINK_WriteReg(R3, 0x00000000)  returns 0x00 (0000ms, 0605ms total)
T2C24 000:992 JLINK_WriteReg(R4, 0x00000000)  returns 0x00 (0000ms, 0605ms total)
T2C24 000:992 JLINK_WriteReg(R5, 0x00000000)  returns 0x00 (0000ms, 0605ms total)
T2C24 000:992 JLINK_WriteReg(R6, 0x00000000)  returns 0x00 (0000ms, 0605ms total)
T2C24 000:992 JLINK_WriteReg(R7, 0x00000000)  returns 0x00 (0000ms, 0605ms total)
T2C24 000:992 JLINK_WriteReg(R8, 0x00000000)  returns 0x00 (0000ms, 0605ms total)
T2C24 000:992 JLINK_WriteReg(R9, 0x20000104)  returns 0x00 (0000ms, 0605ms total)
T2C24 000:992 JLINK_WriteReg(R10, 0x00000000)  returns 0x00 (0000ms, 0605ms total)
T2C24 000:992 JLINK_WriteReg(R11, 0x00000000)  returns 0x00 (0000ms, 0605ms total)
T2C24 000:992 JLINK_WriteReg(R12, 0x00000000)  returns 0x00 (0000ms, 0605ms total)
T2C24 000:992 JLINK_WriteReg(R13 (SP), 0x20004000)  returns 0x00 (0000ms, 0605ms total)
T2C24 000:992 JLINK_WriteReg(R14, 0x20000001)  returns 0x00 (0000ms, 0605ms total)
T2C24 000:992 JLINK_WriteReg(R15 (PC), 0x20000080)  returns 0x00 (0000ms, 0605ms total)
T2C24 000:992 JLINK_WriteReg(XPSR, 0x01000000)  returns 0x00 (0000ms, 0605ms total)
T2C24 000:992 JLINK_WriteReg(MSP, 0x20004000)  returns 0x00 (0000ms, 0605ms total)
T2C24 000:992 JLINK_WriteReg(PSP, 0x20004000)  returns 0x00 (0000ms, 0605ms total)
T2C24 000:992 JLINK_WriteReg(CFBP, 0x00000000)  returns 0x00 (0000ms, 0605ms total)
T2C24 000:992 JLINK_SetBPEx(Addr = 0x20000000, Type = 0xFFFFFFF2)  returns 0x0000000F (0000ms, 0605ms total)
T2C24 000:992 JLINK_Go() -- CPU_ReadMem(4 bytes @ 0xE0001000) (0002ms, 0607ms total)
T2C24 000:994 JLINK_IsHalted()  returns FALSE (0001ms, 0608ms total)
T2C24 001:002 JLINK_IsHalted() -- CPU_ReadMem(2 bytes @ 0x20000000)  returns TRUE (0004ms, 0611ms total)
T2C24 001:006 JLINK_ReadReg(R15 (PC))  returns 0x20000000 (0000ms, 0607ms total)
T2C24 001:006 JLINK_ClrBPEx(BPHandle = 0x0000000F)  returns 0x00 (0000ms, 0607ms total)
T2C24 001:006 JLINK_ReadReg(R0)  returns 0x00000000 (0000ms, 0607ms total)
T2C24 001:007 JLINK_WriteMem(0x20000108, 0x0EF8 Bytes, ...) - Data: 06 98 FA F7 98 FD 00 90 05 EB 46 00 BD F8 00 10 ... -- CPU_WriteMem(3832 bytes @ 0x20000108)  returns 0xEF8 (0022ms, 0629ms total)
T2C24 001:029 JLINK_WriteMem(0x20001000, 0x0108 Bytes, ...) - Data: 00 00 9F 70 00 00 EF 20 00 03 FD 00 00 09 F8 00 ... -- CPU_WriteMem(264 bytes @ 0x20001000)  returns 0x108 (0002ms, 0631ms total)
T2C24 001:031 JLINK_WriteReg(R0, 0x0000B000)  returns 0x00 (0000ms, 0631ms total)
T2C24 001:031 JLINK_WriteReg(R1, 0x00001000)  returns 0x00 (0000ms, 0631ms total)
T2C24 001:031 JLINK_WriteReg(R2, 0x20000108)  returns 0x00 (0000ms, 0631ms total)
T2C24 001:031 JLINK_WriteReg(R3, 0x00000000)  returns 0x00 (0000ms, 0631ms total)
T2C24 001:031 JLINK_WriteReg(R4, 0x00000000)  returns 0x00 (0000ms, 0631ms total)
T2C24 001:031 JLINK_WriteReg(R5, 0x00000000)  returns 0x00 (0000ms, 0631ms total)
T2C24 001:032 JLINK_WriteReg(R6, 0x00000000)  returns 0x00 (0000ms, 0631ms total)
T2C24 001:032 JLINK_WriteReg(R7, 0x00000000)  returns 0x00 (0000ms, 0631ms total)
T2C24 001:032 JLINK_WriteReg(R8, 0x00000000)  returns 0x00 (0000ms, 0631ms total)
T2C24 001:032 JLINK_WriteReg(R9, 0x20000104)  returns 0x00 (0000ms, 0631ms total)
